#Digilent WaveForms Network Analyzer - Bode
#Device Name: Discovery2
#Serial Number: SN:210321AE3681
#Date Time: 2020-09-14 11:53:59.488
#Start: 14461 Hz
#Stop: 20879.6 Hz
#Steps: 151
#Wavegen: Wavegen1
#Amplification: 1 X
#Settle: 10 ms
#MinPeriods: 16 
#Channel: Channel 1
#Range: 5.44198 V
#Offset: -0.00025017 V
#Relative: no
#Channel: Channel 2
#Range: 5.4844 V
#Offset: 0.000101632 V
#Relative: yes

Frequency (Hz),Channel 1 Magnitude (dB),Channel 2 Magnitude (dB),Channel 2 Phase (deg)
14460.96395,0.01623833195938016,-49.84847148007245,-84.253919813435
14496.41948302191,0.01861619376271768,-50.02637700031777,-83.72749299376989
14531.96194626687,0.02076841830929189,-49.97740305791899,-84.83010604397737
14567.59155287127,0.0217713130612137,-50.15869620971359,-83.87331569043414
14603.30851649405,0.02203746329599554,-50.36267443635354,-84.33473776933141
14639.113051318,0.02184973612632227,-50.56819617923799,-84.50625937977539
14675.00537205105,0.02242230971699684,-50.79219777627966,-84.63313807002436
14710.98569392754,0.02214474142630775,-50.7740035598019,-83.67271463890867
14747.05423270955,0.02184443996362702,-50.90661759619947,-83.56287968014716
14783.21120468815,0.02157832657110113,-51.00388334674527,-84.17739199176278
14819.45682668471,0.02132037713331857,-51.49403381213897,-84.46752262099483
14855.79131605222,0.02134995597663204,-51.35979586697412,-83.55496873213508
14892.21489067657,0.02264672436869162,-51.56483354171934,-83.63550493825528
14928.72776897786,0.02179777207305851,-51.75951903420867,-83.51025454509457
14965.33016991172,0.02299116223281105,-51.92730539318654,-83.16516322549887
15002.02231297062,0.02259548693419859,-51.98861264560438,-83.22788181659062
15038.80441818518,0.02239747639935218,-52.2512974232118,-84.59641851488487
15075.6767061255,0.02212615106469814,-52.44507444053475,-83.24706286459988
15112.63939790246,0.02245362504112807,-52.54612445260868,-82.52394634200537
15149.69271516907,0.02209852023243798,-52.75373790784545,-82.74807357230343
15186.83688012181,0.02179008482409993,-53.05859635104311,-84.24810721345608
15224.07211550192,0.02206022805519767,-53.30696332647346,-82.5015497082158
15261.39864459675,0.02264496713864306,-53.16354482478853,-84.64953438932275
15298.81669124114,0.02153724003524676,-53.24536617556483,-80.64377133890599
15336.32647981871,0.0226503200112261,-53.82494517943746,-82.4283208657826
15373.92823526323,0.0189333831603407,-53.80003758583407,-83.16165507812909
15411.62218305997,0.0157731883596358,-54.4235302636143,-82.42054008977289
15449.40854924703,0.01210647622359465,-54.39065496029765,-82.14944600302366
15487.28756041673,0.008082877790294839,-54.43107488008909,-81.45925389667596
15525.25944371695,0.01089087890116489,-54.68654544807357,-81.13136764656571
15563.32442685249,0.01649248864860355,-55.18838642756644,-80.16784778880915
15601.48273808643,0.01858749910132619,-55.60343161595537,-81.9200914614886
15639.73460624152,0.02097175383127958,-55.37938035018568,-80.97680695848307
15678.08026070154,0.02219039257439246,-56.29937835852346,-81.33518191135698
15716.51993141265,0.02205735415664271,-56.38350708113843,-81.08531647148948
15755.05384888485,0.02308222913917363,-56.55943910976081,-80.73152723005899
15793.68224419324,0.02360572702618534,-56.57869562710629,-81.32426934951691
15832.40534897952,0.02398976282851743,-57.01467800707188,-81.3638092718474
15871.22339545331,0.02266821460066028,-57.58313758253366,-80.35192732008183
15910.13661639357,0.02349572963425682,-57.52903084395026,-77.0160641014899
15949.14524515,0.02232795467236158,-58.06005799721085,-77.49919559798241
15988.2495156444,0.02297235613259171,-58.42241084948508,-79.75483846021361
16027.44966237212,0.02410621000504314,-58.56819382448013,-78.79283664302608
16066.74592040347,0.02289894171016999,-59.14978732304478,-76.76683382671479
16106.13852538506,0.0233039420584515,-59.74433473174889,-78.86121677165011
16145.6277135413,0.0238833235524227,-60.26571838737877,-74.8466401617279
16185.21372167576,0.02374246847824411,-60.43543034514131,-75.78279720288259
16224.89678717262,0.02367671290277023,-60.20740757981756,-77.59674748746801
16264.67714799805,0.0224640501025016,-61.02835962479624,-78.75234096617933
16304.55504270171,0.02317556290753053,-61.96921338976761,-69.04776274805566
16344.5307104181,0.02434016176199568,-61.84628720136921,-74.76707317783323
16384.60439086807,0.02300493252947062,-62.67505416099009,-74.40016996967114
16424.77632436018,0.02408448936684715,-63.81789362182698,-72.40493221680168
16465.04675179222,0.02404147587500874,-64.48953772095139,-70.14459627428869
16505.41591465258,0.0238746441923499,-65.10341716392082,-69.25097224874573
16545.88405502176,0.02386652631223253,-64.91503754480372,-57.26470265263777
16586.45141557378,0.02249935171347916,-67.97833392670464,-66.93244987887385
16627.11823957766,0.02221939848390444,-68.13554729213193,-58.58389661184867
16667.88477089886,0.01986093951233909,-67.49799656556802,-61.94374279529617
16708.75125400077,0.01751141717605266,-72.07802143399498,-64.69609593192325
16749.71793394613,0.0125527793411254,-70.03347026555144,-49.18382251072058
16790.78505639854,0.009223270805677086,-71.0636753856151,-48.77227501871788
16831.95286762394,0.01396656917546888,-74.73726426123075,-48.84094055788417
16873.22161449203,0.01902308123456719,-73.73583741593427,-18.8508933142145
16914.59154447782,0.02111534457548547,-75.04903885882351,10.32986495018182
16956.06290566306,0.02354694319025454,-77.43513813059786,13.5378952044878
16997.63594673777,0.02375950820903458,-74.85182552866563,37.33980330936797
17039.31091700169,0.02451914134814364,-76.01230335375412,51.13586530986508
17081.08806636581,0.02476650403585653,-72.52736359152576,36.7709532574836
17122.96764535384,0.02472631294540232,-70.03303119643319,47.18654846627761
17164.94990510375,0.02495831019808501,-68.92142008433244,65.04699072862864
17207.03509736921,0.02440924227810219,-69.886348369549,57.11998357737755
17249.2234745212,0.02450529727720447,-67.15575763043014,66.44138030760743
17291.51528954941,0.02377449092416783,-66.20359732554741,76.10829699065906
17333.91079606386,0.02478829594682493,-66.71996779653728,68.24346435675898
17376.41024829634,0.02459118029652684,-64.97043513340267,76.72227016863221
17419.01390110197,0.02526038548401706,-64.35041321166642,71.69993387179636
17461.72200996076,0.02474329738432177,-63.90785281492185,79.15879955923211
17504.53483097906,0.02556987153678953,-63.53584968775858,78.60849798308098
17547.45262089118,0.02504917154084955,-62.40903984391078,76.63143307539474
17590.47563706088,0.02456247506685361,-62.19758130125246,80.89690487131566
17633.60413748293,0.02360688105425769,-61.58472875640925,87.27499442204196
17676.83838078465,0.0219890703907775,-60.83912420303395,81.68333756029442
17720.17862622748,0.01748888459621853,-60.97520210040661,85.12885650571289
17763.62513370848,0.02467419771377005,-60.81282031475077,84.32093212379752
17807.17816376199,0.02441584797447363,-59.91698039629787,84.30066372385136
17850.83797756107,0.02478880470143219,-59.29753598227911,84.13650649670166
17894.60483691916,0.02594235627335514,-59.19516675054307,86.81763969797441
17938.47900429161,0.02622958093137387,-58.49217533223755,87.80361664203835
17982.46074277727,0.02596171785724689,-58.32008792760309,84.03139754074607
18026.55031612004,0.02566900444544815,-57.39482933490728,83.26397251491802
18070.74798871047,0.02523115798780626,-57.55123113317538,82.52064743278935
18115.05402558737,0.02503325018225011,-57.15474875291149,84.43595816637178
18159.46869243936,0.02259545845610936,-56.77047733205802,86.34918321592124
18203.99225560646,0.01962384772825254,-56.5196863583671,85.73952533083148
18248.62498208174,0.01687454113537479,-56.38686369212578,87.11507840235899
18293.36713951285,0.01229053926821063,-55.89477330440552,86.2851790565461
18338.21899620369,0.01406739974890331,-55.85499798812256,87.07425274880497
18383.18082111598,0.01780889338287748,-55.22057436620756,87.71417171839869
18428.25288387088,0.02211044919747625,-55.44537251728526,87.30927950904425
18473.43545475061,0.02402073689305796,-54.92164291277865,89.44339888408075
18518.72880470007,0.02519615980947361,-54.84504499174221,89.69431861800786
18564.13320532848,0.02660557465102804,-54.45130497479339,88.5402688543972
18609.64892891097,0.02688700246620939,-54.17453099649202,89.28808634855534
18655.27624839026,0.02564895908029798,-54.39067721029778,89.35992939038508
18701.01543737825,0.02722515708345088,-53.9543857912047,90.54073620717145
18746.8667701577,0.02674141213090161,-53.57367520543322,88.75401298767706
18792.83052168386,0.02580506827694054,-53.49043752251426,89.2831508606647
18838.90696758611,0.02601360486573485,-53.33082068492818,87.89983756675446
18885.09638416964,0.02578569695357383,-52.93221789637524,86.94813588347108
18931.39904841705,0.02542759840774653,-52.76135859776433,89.89949526435673
18977.81523799008,0.0263880274330516,-52.50814282914101,88.77932314538799
19024.34523123124,0.02724622823595339,-52.31409558518936,90.1131791635742
19070.98930716548,0.02534581048996186,-51.98395184257551,88.88000905669426
19117.74774550185,0.02629961955130256,-52.11361291105202,88.29908848885805
19164.62082663522,0.02642225922882128,-51.92803367807367,88.39468538206253
19211.60883164792,0.02546389355459575,-51.67823205387725,88.75111561324336
19258.71204231144,0.02397084372228637,-51.36514523698931,88.11280440962281
19305.93074108812,0.02159847069469313,-51.40120496509223,90.94629183636138
19353.26521113286,0.01809660247091161,-51.45321975806121,89.36564502258125
19400.71573629477,0.01317455781045872,-50.97568105619964,89.05164367622075
19448.28260111894,0.01365588380732426,-50.74554105380764,90.06855146368983
19495.96609084808,0.01959439222978535,-50.76647947016835,90.18509456711401
19543.76649142428,0.02654675304232811,-50.73927851982306,89.17275147333626
19591.6840894907,0.02705943699936025,-50.40874929056013,89.92393179482401
19639.7191723933,0.0257681031436777,-50.33811794021794,89.01928463921703
19687.87202818253,0.0275868699405866,-50.10993844614703,91.06983304444495
19736.14294561513,0.02724267842676717,-50.08998369363488,90.76194606659243
19784.53221415579,0.02745700288970414,-49.80352613868907,90.74537892260936
19833.04012397891,0.02595535728508107,-49.93736028032376,89.99871643783221
19881.66696597034,0.02565577410873073,-49.57534076647956,90.41735933509233
19930.41303172915,0.0258166371154244,-49.58949507975528,90.6583746003447
19979.27861356934,0.02440534784681607,-49.43886934490349,89.08872425133421
20028.2640045216,0.02292413625766185,-49.45984324103428,89.98991777885306
20077.36949833508,0.01846507412155064,-49.20816954501308,89.98098211104114
20126.59538947916,0.01321247496442414,-48.95801887730115,90.44808157188163
20175.9419731452,0.01559379431152499,-48.78175973902599,89.77110849406768
20225.40954524829,0.01954484930397803,-48.82643584125614,91.4838319176618
20274.99840242908,0.02314049051150925,-48.55790977875229,90.35429869386104
20324.7088420555,0.02477248475938093,-48.56545006447581,89.9117442052641
20374.5411622246,0.02679022885288419,-48.53958615945169,91.57610790169036
20424.49566176426,0.02829530646428102,-48.25572058993967,90.09867995394308
20474.57264023508,0.02834831440261618,-48.29140858675366,90.48451368812638
20524.7723979321,0.02779370187694331,-48.06851573108751,90.72659295546003
20575.09523588662,0.02816155757374633,-47.76372528821825,91.32106428637626
20625.54145586802,0.02751367121978623,-47.79934030413798,91.18577399800222
20676.11136038556,0.02763709058569602,-47.8127594518344,90.55205860491249
20726.80525269021,0.02770187008702894,-47.69914386310894,91.36145773174734
20777.62343677644,0.02726305615646521,-47.5914490963081,90.71426816937654
20828.56621738404,0.02877954270468755,-47.30890179465872,90.98110138026576
20879.6339,0.02815814947774887,-47.34147843127306,91.05381868832177
