#Digilent WaveForms Network Analyzer - Bode
#Device Name: Discovery2
#Serial Number: SN:210321AE3681
#Date Time: 2020-09-14 11:11:16.611
#Start: 12402 Hz
#Stop: 19682.2 Hz
#Steps: 151
#Wavegen: Wavegen1
#Amplification: 1 X
#Settle: 10 ms
#MinPeriods: 16 
#Channel: Channel 1
#Range: 5.44198 V
#Offset: -0.00025017 V
#Relative: no
#Channel: Channel 2
#Range: 5.4844 V
#Offset: 0.000101632 V
#Relative: yes

Frequency (Hz),Channel 1 Magnitude (dB),Channel 2 Magnitude (dB),Channel 2 Phase (deg)
12402.02362,0.01738304209875359,-35.34476527856773,88.14632633896639
12440.26851244216,0.01653407676006532,-35.26993023552975,88.01651836749716
12478.63134304044,0.01528933951392134,-35.15804221631488,88.19901962625364
12517.11247548807,0.01160644325319204,-35.05153228403032,88.00684988030771
12555.71227459984,0.00689663897159956,-34.94627272870136,88.28022850599056
12594.43110631552,0.003489195261098085,-34.88140034412809,88.1334260288824
12633.26933770338,0.009633854338693666,-34.76713113102866,88.10906604922508
12672.2273369636,0.01404537887309543,-34.65104270104767,88.02885694050887
12711.30547343184,0.01621424482177845,-34.55138802259643,88.23966891360767
12750.50411758269,0.01782113144418782,-34.43003856922318,87.93281253850475
12789.82364103319,0.01847891057058302,-34.34470137497406,88.0723563019009
12829.26441654636,0.01845512641381578,-34.2150300915722,88.06817760312457
12868.82681803474,0.01854798171781947,-34.09034846638068,87.81925206343456
12908.51122056392,0.0178005161047837,-33.98797783944229,87.72797238930529
12948.31800035611,0.0176369650792783,-33.87401579312821,87.76923491119733
12988.24753479369,0.01801809991327849,-33.76399010627396,87.79997627293031
13028.3002024228,0.01773332267254709,-33.62959335101935,87.82256020822871
13068.47638295694,0.0186449245440015,-33.53601277908111,87.64321279716569
13108.77645728054,0.01786004899023377,-33.39925969332582,87.56574758956394
13149.20080745259,0.01990966742872035,-33.29912229585484,87.53911064901509
13189.74981671027,0.01863739059681267,-33.16605595200708,87.57253900614184
13230.42386947256,0.01895480138033717,-33.02568087407461,87.52563427945502
13271.2233513439,0.01961385108443701,-32.92631036877508,87.41953555283038
13312.14864911785,0.01620096938379661,-32.80462825429882,87.23851658659515
13353.20015078073,0.01296868411251677,-32.64595078716721,87.26857207056317
13394.37824551533,0.007969847341802552,-32.51362257470268,87.3102816416142
13435.6833237046,0.003593433713920601,-32.38241601900241,87.17482573913719
13477.11577693532,0.009847523167862231,-32.25293045609984,87.20327156057425
13518.67599800184,0.01450280212235649,-32.1308804604562,87.09061969321596
13560.36438090979,0.01750333977514059,-31.97468703904052,87.11259126526002
13602.18132087981,0.0182495468008671,-31.84608574274243,86.94985019692569
13644.12721435133,0.01922918878605163,-31.68842906835268,86.89777815198565
13686.20245898628,0.01953061039106005,-31.53348152640098,86.78501832729597
13728.4074536729,0.01993559822258843,-31.40980139637287,86.74417053162067
13770.74259852952,0.01968906030241102,-31.25863144652921,86.66169050731905
13813.2082949083,0.0203018055597254,-31.09386695528372,86.5049725505053
13855.8049453991,0.01902337150849696,-30.94688364728099,86.59178423620222
13898.53295383328,0.01920416534957788,-30.77335830368344,86.30096093122921
13941.39272528751,0.02057633496495275,-30.61964912840646,86.36883065394569
13984.38466608761,0.02046302410309836,-30.46573871953208,86.20446539906401
14027.50918381243,0.0199956920499289,-30.27765516099355,86.24191510142667
14070.76668729767,0.02019151766318619,-30.12158359894551,86.11827604400395
14114.15758663982,0.02100040319409654,-29.96076237693366,85.96788968163534
14157.68229319998,0.02074810969329208,-29.77264631937988,85.84984715243716
14201.3412196078,0.02049821496014492,-29.58600683848785,85.83019830788128
14245.13477976539,0.01857713519242896,-29.41218804255406,85.59186497887444
14289.06338885121,0.01582445816854804,-29.21138028739347,85.46675391952135
14333.12746332407,0.01246784531965519,-29.03249943253161,85.39558744199059
14377.327420927,0.006793952536220641,-28.83781623511804,85.27545029004227
14421.66368069128,0.009396713764155108,-28.63737049816494,85.15042499311998
14466.13666294036,0.0143300082613608,-28.4342448974899,85.02955025356472
14510.74678929389,0.01804064766028417,-28.22902806761159,84.72800478813696
14555.49448267169,0.01973738445320585,-28.01144490398358,84.72978858235423
14600.38016729774,0.0198268983102648,-27.78472874353355,84.4426013941257
14645.40426870426,0.02060374675292922,-27.55929842714378,84.32705012710426
14690.56721373568,0.02134413079882464,-27.34556689061682,84.07885549909378
14735.86943055274,0.02129866642289505,-27.1007911911509,83.89301205569667
14781.31134863652,0.02090769235529618,-26.85701615474225,83.64575527681055
14826.89339879252,0.01979506284213671,-26.59059087118657,83.48589075435629
14872.61601315471,0.02057387890849902,-26.33941348715879,83.1835505799864
14918.47962518972,0.02132463999025284,-26.07286763706433,82.85039398367883
14964.48466970082,0.02126505967348721,-25.80551197481757,82.66221629641845
15010.63158283216,0.02160441829319206,-25.51997416917925,82.34252352553892
15056.92080207284,0.02062228307624201,-25.2299030120242,82.09441803965871
15103.35276626107,0.02044115189213857,-24.9215354190485,81.64846730845557
15149.92791558832,0.02123531196360684,-24.62191641077166,81.35366012403085
15196.64669160352,0.02192011085777773,-24.29391346618564,81.01160115374373
15243.50953721725,0.02203924732138509,-23.96143331122036,80.56222478852003
15290.51689670588,0.02118313203315807,-23.61389741813298,80.13972212679269
15337.66921571586,0.01954097056000621,-23.24870963287387,79.58404626849006
15384.96694126788,0.01778494850470484,-22.87282380640853,79.05015087779014
15432.41052176115,0.01319530382599551,-22.46795240942585,78.47162476046792
15480.00040697764,0.007579795337244599,-22.07010364840887,77.78331426453826
15527.73704808632,0.01137916449467363,-21.63545685192165,77.09147120655673
15575.62089764749,0.01570950712628956,-21.18944285526496,76.28678446198269
15623.65240961701,0.0188340144313018,-20.70743327038247,75.44435484985578
15671.83203935065,0.02105527375923972,-20.21017855572735,74.40488399480608
15720.16024360838,0.02265021020295473,-19.6943132458712,73.32828610326467
15768.6374805587,0.0226057612572015,-19.13664703907727,72.06923145876716
15817.26420978302,0.02225861597933626,-18.54905001684289,70.59305829990323
15866.04089227996,0.02179078712718345,-17.92045189292728,68.95352454328913
15914.96799046977,0.02202821793352383,-17.25513465758036,67.00278423121651
15964.04596819869,0.02305034238262323,-16.54956131895678,64.70707379555998
16013.27529074334,0.02252734863841236,-15.7922172418563,62.00887040098564
16062.65642481517,0.02268380198188426,-14.98309752241578,58.7504867907777
16112.18983856481,0.02324313899723109,-14.13261175392405,54.77216327917198
16161.87600158661,0.02363666028521297,-13.24239393224932,49.86022509092651
16211.715384923,0.023521529996392,-12.33461948448274,43.81386454640534
16261.70846106901,0.02197963568141294,-11.45254300921718,36.31407491234289
16311.85570397672,0.02303879201640921,-10.67252316962555,27.19623804121738
16362.15758905977,0.02285780326405047,-10.10063993112967,16.58465118637375
16412.61459319788,0.02408185163244455,-9.832755267475264,5.05480545335093
16463.22719474132,0.02372923311674653,-9.912730677038665,-6.495937291981267
16513.99587351551,0.02230507021376443,-10.30543048926132,-17.23096697944069
16564.92111082551,0.02334059180997151,-10.92608160947634,-26.68187395567584
16616.00338946064,0.02164192636233048,-11.69297692418095,-34.686729544013
16667.24319369901,0.01802147034150459,-12.52361168803023,-41.33765813094377
16718.64100931213,0.01407452374831623,-13.37636823963525,-46.82786106555885
16770.19732356951,0.009294599239892641,-14.21853748003555,-51.36575976017587
16821.91262524329,0.01175466341300737,-15.02964595780492,-55.11160510022617
16873.78740461287,0.01794388661626194,-15.80233137210342,-58.24355278846525
16925.82215346954,0.01953718560141187,-16.53644227676731,-60.85897544189982
16978.01736512118,0.02160468581016307,-17.2290189799097,-63.1109514581446
17030.37353439689,0.02369036578673743,-17.88022528539426,-65.04099420542354
17082.89115765173,0.02362591023710376,-18.49990951099621,-66.69033905916382
17135.57073277138,0.02336488469003761,-19.07820117253276,-68.13248322742552
17188.41275917689,0.02298572070011173,-19.63326624574196,-69.40655491103485
17241.4177378294,0.02302333270054947,-20.15507428159761,-70.51087338567373
17294.58617123492,0.02358605400560453,-20.65003480399856,-71.51778120287082
17347.91856344903,0.02299148733525602,-21.11481620550702,-72.41152866236544
17401.41542008172,0.02332774280096299,-21.57371396229899,-73.2512614691147
17455.07724830216,0.02392079373227816,-21.99178873648518,-73.94561212262167
17508.90455684351,0.02383297099994675,-22.40375806467451,-74.52846303398695
17562.89785600773,0.02405658120926061,-22.79665312254101,-75.17363305391643
17617.05765767046,0.02308293458758312,-23.18190167829295,-75.74603283614944
17671.38447528579,0.02054613919436522,-23.54318928873143,-76.12434998451506
17725.87882389125,0.01637286452993609,-23.890950322244,-76.70382540441116
17780.54122011255,0.02380377202975012,-24.23430671704984,-77.08236360864511
17835.3721821686,0.02352569653645992,-24.54634378392608,-77.5255401200171
17890.37222987638,0.02330312787228357,-24.86068960293071,-77.81577555706185
17945.54188465581,0.02385599024757831,-25.16992464063859,-78.20459706666276
18000.88166953479,0.02432969771047427,-25.45542591514835,-78.53802589515624
18056.39210915411,0.02323221922251713,-25.74214132902379,-78.77577138908077
18112.0737297724,0.02414961026879487,-26.01581430289479,-79.11906709037805
18167.92705927119,0.0211912144680228,-26.27865296240257,-79.38982762520465
18223.95262715982,0.01799273664909723,-26.54210840967666,-79.6265375815839
18280.15096458055,0.01231860245582831,-26.7835503274459,-79.87542131147336
18336.52260431355,0.01119790969359635,-27.02776896562699,-79.9801806879228
18393.06808078194,0.01594325773423852,-27.2871253711912,-80.22305614267194
18449.78793005689,0.02187724520731338,-27.50834036356833,-80.48462327558349
18506.68268986268,0.02266236369994737,-27.72196180926587,-80.64686632042377
18563.7528995818,0.02421472783367782,-27.94818159622888,-80.93202159693057
18620.99910026008,0.02482057756310427,-28.16333060707458,-80.97224904682469
18678.4218346118,0.02485184332656563,-28.37600599679511,-81.10015159104312
18736.02164702482,0.02430424792881426,-28.59341484121345,-81.28709619856647
18793.79908356581,0.02507375427953909,-28.78299696278468,-81.38177509893868
18851.75469198534,0.02493799187017262,-28.9776866890268,-81.52879119140322
18909.88902172313,0.02403953480050406,-29.16484628942388,-81.49468357991913
18968.20262391323,0.02436664201607436,-29.36096271349317,-81.8698577565934
19026.69605138927,0.02539828088322732,-29.53517599095284,-81.93193466203682
19085.36985868968,0.02501446276493749,-29.72326474993148,-82.11498631660739
19144.22460206295,0.02534124599755687,-29.90259608212876,-82.08083999781635
19203.26083947292,0.0249833073027501,-30.07785146234699,-82.26173126004515
19262.47913060405,0.02253660354695362,-30.23161089377,-82.29631228120118
19321.88003686673,0.02001047392963235,-30.41453970383018,-82.54468673788222
19381.46412140262,0.01357475917856194,-30.57345287653018,-82.53230754649057
19441.23194908997,0.01144524617697391,-30.73437420829702,-82.8082590930635
19501.18408654896,0.01816108925200558,-30.86919705923898,-82.76133132616178
19561.32110214713,0.02543835724939502,-31.04983754065757,-82.81342391582454
19621.6435660047,0.02539952369614485,-31.19508222894916,-82.90705580780039
19682.15205,0.02483979876071907,-31.33508547840458,-82.96520138928598
