#Digilent WaveForms Network Analyzer - Bode
#Device Name: Discovery2
#Serial Number: SN:210321AE3681
#Date Time: 2020-09-23 10:21:12.901
#Start: 1000 Hz
#Stop: 1e+06 Hz
#Steps: 151
#Wavegen: Wavegen1
#Amplification: 1 X
#Settle: 10 ms
#MinPeriods: 16 
#Channel: Channel 1
#Range: 5.44198 V
#Offset: -0.00025017 V
#Relative: no
#Channel: Channel 2
#Range: 5.4844 V
#Offset: 0.000101632 V
#Relative: yes
#Power Supplies: ON
#Positive Supply: ON
#Voltage: 5 V
#Negative Supply: ON
#Voltage: -5 V

Frequency (Hz),Channel 1 Magnitude (dB),Channel 2 Magnitude (dB),Channel 2 Phase (deg)
1000.000000000001,0.02215301123589911,-6.017203905615456,-0.1396398063707487
1047.128548050901,0.02328424054527666,-6.017866543456414,-0.1389096814929527
1096.478196143186,0.02252263564763328,-6.018060731323084,-0.1503366888189248
1148.153621496884,0.02314280177463818,-6.017653906748595,-0.1551569694955539
1202.264434617413,0.02269639821435051,-6.017797572159422,-0.1617938111471631
1258.925411794169,0.02336654751786029,-6.01778414286203,-0.1697278818013359
1318.256738556409,0.02336537116809037,-6.0180768869402,-0.1817658758620837
1380.384264602885,0.02350965530205579,-6.017732512857565,-0.182068425135526
1445.43977074593,0.0231794977387616,-6.018055037896247,-0.1957268614552277
1513.56124843621,0.02375397512557826,-6.01779811419622,-0.2020180158148435
1584.893192461114,0.0229291224039824,-6.018178271946915,-0.2179738978634163
1659.586907437563,0.02262409894840829,-6.018315978222057,-0.2250235991837144
1737.800828749376,0.02318073262277344,-6.017748355647624,-0.2384405827600347
1819.700858609985,0.02216082936610256,-6.018303662796587,-0.2457960281597025
1905.46071796325,0.02262731456529226,-6.017526384481206,-0.2621166839575721
1995.262314968881,0.02363173694627871,-6.018779318661053,-0.2698147655706009
2089.296130854041,0.02319678309696947,-6.018316590415902,-0.2802364845090892
2187.761623949555,0.02313930959436757,-6.018097842964986,-0.294053155765674
2290.867652767775,0.02377418847404078,-6.01875202335807,-0.3072608483777515
2398.832919019493,0.02342069756777175,-6.018618019662297,-0.3289609730133236
2511.886431509583,0.02379205623206307,-6.019503188402675,-0.3359022209779425
2630.267991895385,0.02498646759818028,-6.019052751702692,-0.3530482284016365
2754.228703338169,0.02401718469261599,-6.019048574846705,-0.3716582165441302
2884.031503126609,0.02358447913735175,-6.018880448156771,-0.3830645535133141
3019.951720402019,0.02379170478150668,-6.019150111798901,-0.4032651866104544
3162.277660168383,0.02400909811457217,-6.019931307945008,-0.4236155737200988
3311.311214825915,0.02390952371396109,-6.019683804245471,-0.4405263984064618
3467.368504525317,0.02579913108578934,-6.020076199644688,-0.4639711225706264
3630.780547701018,0.02509733531506839,-6.019841648469876,-0.4812437891754087
3801.893963205617,0.02618472475453823,-6.020971847829006,-0.5045741799806613
3981.071705534974,0.0249520864784426,-6.021250050434718,-0.5292651195156566
4168.69383470336,0.02623566677995837,-6.020676782297522,-0.5529249535805434
4365.158322401666,0.02594993970664951,-6.020837322954113,-0.5748800000081893
4570.881896148752,0.02586561702475654,-6.020646887666842,-0.6060553022775252
4786.30092322639,0.0269791921746108,-6.021664415241192,-0.632909277620854
5011.872336272731,0.02707400925491175,-6.021070415797258,-0.6600482424082657
5248.074602497729,0.02638750844677043,-6.021756336396102,-0.6869907501164221
5495.408738576255,0.02901073191696238,-6.02097672604692,-0.7196519729289967
5754.399373371579,0.02963931864023068,-6.021884182515665,-0.747723364592062
6025.595860743581,0.02941390123811759,-6.022271518298973,-0.7826991974105297
6309.573444801938,0.02970448535811504,-6.021508040043252,-0.8186876886252854
6606.934480075965,0.03025905729872255,-6.022847817421576,-0.8624004511498526
6918.309709189371,0.0229136032681509,-6.022668445115402,-0.8981589900517619
7244.359600749907,0.03142546502076358,-6.022413226409901,-0.9424214802858586
7585.775750291845,0.03309445860841635,-6.023460941817184,-0.9834456383600383
7943.282347242822,0.03323110391921422,-6.023774253571591,-1.026294435860521
8317.637711026719,0.03181273432865683,-6.024568948026022,-1.070748367790415
8709.635899560815,0.02964776445385345,-6.024964801920008,-1.123985681830419
9120.108393559107,0.0267669578048976,-6.022884781870241,-1.173391874877126
9549.925860214371,0.02846990851369008,-6.02381395467255,-1.22994060148261
10000,0.03303553388091529,-6.024675837137399,-1.285671105220302
10471.28548050901,0.03703695701298124,-6.023531664729338,-1.352909554210498
10964.78196143186,0.03855672502351017,-6.025120209859973,-1.409548303907217
11481.53621496883,0.03871586375323043,-6.023771772409448,-1.485043833899098
12022.64434617414,0.04018481273794298,-6.024921860609243,-1.544986736696348
12589.25411794168,0.02445108501258241,-6.023621660505692,-1.626365651019142
13182.56738556408,0.04152283342797658,-6.025957348923798,-1.695447357555427
13803.84264602886,0.04107855750256836,-6.025258804144084,-1.781947786133472
14454.39770745929,0.03454094775642526,-6.024429074706712,-1.869877803252365
15135.61248436209,0.04395320196244398,-6.025681961557012,-1.953480748245966
15848.93192461115,0.04299243695538876,-6.026332047792783,-2.053710824577806
16595.86907437562,0.04439388670012591,-6.025827699331049,-2.155085187103936
17378.00828749377,0.0457987829302512,-6.026645049207343,-2.255661127518408
18197.00858609984,0.0420078032153092,-6.024662629855894,-2.370898892560234
19054.6071796325,0.04808363291047994,-6.02609941770249,-2.478457347384506
19952.62314968881,0.04516171862954338,-6.025964136469794,-2.609229944094125
20892.9613085404,0.04908217418766451,-6.027163797937503,-2.744316784498835
21877.61623949554,0.0496298667199925,-6.02850610810742,-2.871227258227484
22908.67652767775,0.04978399993009481,-6.027951305062505,-3.02302951310503
23988.32919019491,0.05127963348225627,-6.027954330322459,-3.168165220057077
25118.86431509582,0.04186585661335429,-6.030395350244676,-3.344922511482082
26302.67991895385,0.05420117728777717,-6.029149895436692,-3.518031287527805
27542.28703338168,0.05361822176764586,-6.02959041875473,-3.700801794223921
28840.31503126609,0.04596326539563078,-6.030527264553019,-3.90941605476873
30199.51720402019,0.05546626567007222,-6.031154967463246,-4.104898479350855
31622.77660168381,0.05853031697741044,-6.033248208503343,-4.346581666067408
33113.11214825913,0.06011098605662391,-6.035510294616827,-4.60470785592041
34673.68504525317,0.06004277248801063,-6.037701367103748,-4.877341046019694
36307.80547701017,0.06270227743273056,-6.038263241161546,-5.158690626544342
38018.93963205613,0.06333858880861126,-6.043093025592064,-5.480111736873539
39810.71705534974,0.06579421357811864,-6.046617620228073,-5.840018750737286
41686.93834703357,0.06720853195521094,-6.048984792999939,-6.236282706220209
43651.58322401662,0.06967669673526652,-6.059173193169612,-6.681618283421166
45708.81896148752,0.06946155834539677,-6.066828724361933,-7.198711913640665
47863.00923226389,0.06718539664172402,-6.079749635124888,-7.82173756396562
50118.72336272725,0.0692784920272098,-6.104048291482052,-8.551222252458317
52480.74602497729,0.07463528562030733,-6.138374061349925,-9.403533471024375
54954.08738576246,0.07672703944752844,-6.188286955321295,-10.45736074853744
57543.99373371573,0.08035743910215644,-6.258975788846826,-11.67141350406433
60255.95860743582,0.08342522249463401,-6.352884385540353,-13.07953773229026
63095.73444801934,0.08164205618091036,-6.468702318346377,-14.66948231176987
66069.34480075965,0.08784031123036615,-6.616271227544975,-16.47621247373053
69183.09709189367,0.08735539880951265,-6.787598275573393,-18.51895202736284
72443.59600749904,0.0916093664951951,-6.989318879874951,-20.74771377538217
75857.75750291845,0.09106171491504612,-7.216827660687185,-23.25877828010923
79432.82347242819,0.08231853385023075,-7.477511500805777,-25.92142941249016
83176.37711026713,0.08952486335027227,-7.766645231810557,-28.97399746633535
87096.35899560807,0.09303389173517751,-8.086636274252198,-32.17899702184774
91201.08393559101,0.09657654173113914,-8.435231857341295,-35.43361937002236
95499.25860214366,0.09342841293196177,-8.798974670902659,-38.60123930972895
100000,0.1023314099730271,-9.174811730210314,-41.65322098089617
104712.85480509,0.1088708130069084,-9.558713515596001,-44.74398188680614
109647.8196143186,0.1089518780796677,-9.954048406696847,-47.52216498583456
114815.3621496883,0.1100857235905594,-10.33894397754167,-50.14771916726128
120226.4434617413,0.1119035898668012,-10.74145624962484,-52.71002452781991
125892.5411794167,0.1098719942376405,-11.13691645476057,-54.95323595301688
131825.6738556408,0.1080224278289135,-11.53606626173875,-57.3857954731337
138038.4264602886,0.1102740537202978,-11.93244784944087,-59.26644365560109
144543.9770745928,0.1112714943801916,-12.33328641318063,-61.27806368974233
151356.1248436209,0.111951348042328,-12.74064251496597,-63.23742441660432
158489.3192461114,0.1129402159677752,-13.14144228223489,-64.96814260737865
165958.6907437561,0.1129597840296705,-13.54279016694754,-66.64477308754866
173780.0828749377,0.09582281995110334,-13.94428888101609,-68.40310366834288
181970.0858609984,0.10786888779645,-14.35257682523083,-69.96230815527639
190546.0717963248,0.1056034617747526,-14.75576623930984,-71.53103615096757
199526.2314968881,0.1030541133663223,-15.15789416522072,-72.98315807380018
208929.613085404,0.1014956668833765,-15.55958123038031,-74.40549029047364
218776.1623949554,0.1000711673827763,-15.98654148980433,-76.02268467139776
229086.7652767773,0.09455936269381124,-16.37582629747157,-77.26324362510343
239883.2919019491,0.0913615103177027,-16.79942264997311,-78.65441312668214
251188.6431509582,0.08281602693440901,-17.21761434577262,-79.94479183270401
263026.7991895382,0.07484655849577451,-17.6155200200897,-81.39995639654207
275422.8703338168,0.07250039478243187,-18.02674364801352,-82.63618696503147
288403.1503126606,0.0719749084768903,-18.43255242205909,-83.90188469560485
301995.1720402017,0.0692652092220228,-18.84789858282659,-85.31405497390348
316227.7660168381,0.06723337258728686,-19.2691631197275,-86.52712732140931
331131.1214825911,0.06130649406221704,-19.68283824413427,-87.9151796496853
346736.8504525318,0.05113994855851737,-20.10719302602395,-89.29486905375828
363078.0547701016,0.04845902328724049,-20.53270072942608,-90.68675581873416
380189.3963205612,0.04393167622302595,-20.97419466590813,-92.10311498280086
398107.1705534974,0.03258272376822324,-21.40200785796786,-93.62071160051931
416869.3834703354,0.0312113874572321,-21.82998699269346,-95.20971379569173
436515.8322401661,0.02495221755154358,-22.29683461748791,-97.70600737018739
457088.1896148753,0.01051220907264458,-22.71562394550399,-98.47740042402015
478630.0923226384,0.01248002374960282,-23.16513135841383,-100.107651292961
501187.2336272725,0.006556022942991083,-23.65883861990283,-102.0068611086869
524807.4602497726,-0.0004822080172259925,-24.10652731736528,-103.9681844754434
549540.8738576247,-0.005728565516663577,-24.5825999225073,-105.7278113357023
575439.9373371572,-0.01192975307775037,-25.07909973930628,-108.0738568937308
602559.5860743577,-0.0200464808438759,-25.58389100162517,-110.1317632832206
630957.3444801935,-0.02451243045350826,-26.09327024231508,-112.4837030607257
660693.4480075958,-0.02874476802739736,-26.46598167774108,-114.9249878756175
691830.9709189367,-0.03470566956811982,-27.16310161590858,-117.6317010945432
724435.9600749903,-0.04139839263929006,-27.71710635462301,-120.3556915759213
758577.5750291838,-0.04536240482201693,-28.27757161482292,-123.3221893440645
794328.2347242817,-0.05245610047307715,-28.83537974524559,-126.5535749599897
831763.7711026714,-0.0568432458126162,-29.43285758674849,-130.1184353125404
870963.5899560807,-0.063414747087073,-29.99038202548945,-133.7438939272717
912010.83935591,-0.06852631497167304,-30.63936819053121,-137.9186636585383
954992.5860214358,-0.07378525812610333,-31.26073381319581,-142.005834295535
1000000,-0.08082089469919759,-31.8622457339811,-147.0392729643829
