#Digilent WaveForms Network Analyzer - Bode
#Device Name: Discovery2
#Serial Number: SN:210321AE3681
#Date Time: 2020-09-23 10:20:32.994
#Start: 1000 Hz
#Stop: 1e+06 Hz
#Steps: 151
#Wavegen: Wavegen1
#Amplification: 1 X
#Settle: 10 ms
#MinPeriods: 16 
#Channel: Channel 1
#Range: 5.44198 V
#Offset: -0.00025017 V
#Relative: no
#Channel: Channel 2
#Range: 5.4844 V
#Offset: 0.000101632 V
#Relative: yes
#Power Supplies: ON
#Positive Supply: ON
#Voltage: 5 V
#Negative Supply: ON
#Voltage: -5 V

Frequency (Hz),Channel 1 Magnitude (dB),Channel 2 Magnitude (dB),Channel 2 Phase (deg)
1000.000000000001,0.02211680175238877,-0.003157722830730522,-0.2359056262271615
1047.128548050901,0.02243565713244959,-0.003206764147544576,-0.2455223179474757
1096.478196143186,0.02183033688535702,-0.003320047538698629,-0.2569879418610128
1148.153621496884,0.02190027656478997,-0.003538139987520204,-0.2706788333374277
1202.264434617413,0.02178027530981014,-0.003551658666997663,-0.2827698414540123
1258.925411794169,0.02162268108733404,-0.003576343361131877,-0.2962146367143106
1318.256738556409,0.02209246191491665,-0.003828108078751434,-0.3098711430595529
1380.384264602885,0.02170357823647408,-0.003406907188110075,-0.3229750613443798
1445.43977074593,0.02279410175176305,-0.003550656830818771,-0.3386654070252746
1513.56124843621,0.02232283608784394,-0.003886340729974379,-0.3558165913185434
1584.893192461114,0.02183010840305689,-0.003711537223285578,-0.3739864641440391
1659.586907437563,0.02159122128678995,-0.00403277418270033,-0.3894598013849873
1737.800828749376,0.02223785297103568,-0.003620581543579621,-0.4091872085872801
1819.700858609985,0.02246020149185376,-0.003826516737340908,-0.4259586785017575
1905.46071796325,0.02242203469618589,-0.004094395380291277,-0.446524158699745
1995.262314968881,0.02234358833362157,-0.004395552430132611,-0.46769409361643
2089.296130854041,0.02301447793524854,-0.004179867645991127,-0.4882816983930685
2187.761623949555,0.02254448461145433,-0.00414139065870092,-0.5124256817910151
2290.867652767775,0.02250825037229163,-0.004083908428919825,-0.5369466564755889
2398.832919019493,0.0231038091970444,-0.004921588205107902,-0.5632750104832809
2511.886431509583,0.02372347451590736,-0.004677816411848564,-0.5860514401124775
2630.267991895385,0.02321613858015561,-0.004428328300803188,-0.6148162668637127
2754.228703338169,0.02273790190608558,-0.004390348549581084,-0.6442418614718353
2884.031503126609,0.02375912955952905,-0.004986491246061615,-0.6759933040731596
3019.951720402019,0.02288979242328363,-0.004887595896691456,-0.7074165719993282
3162.277660168383,0.02398476842961592,-0.005456551092223962,-0.7406717767673285
3311.311214825915,0.02475677665868446,-0.005435867117502751,-0.7725812549811053
3467.368504525317,0.02465632124824737,-0.005465616583690912,-0.8097642742800701
3630.780547701018,0.02452180028408781,-0.005430029308467125,-0.8495940600759155
3801.893963205617,0.02556042872420485,-0.006378003340860763,-0.8906003830056051
3981.071705534974,0.02493232159803279,-0.00630068876336801,-0.9308648691594499
4168.69383470336,0.02506940760173597,-0.006425489908123165,-0.9715435974708555
4365.158322401666,0.02660801313835433,-0.006140495601909553,-1.02173849631987
4570.881896148752,0.0258862701154513,-0.006640376367365166,-1.068908648276107
4786.30092322639,0.02697798509859137,-0.007062460009087165,-1.116291684476657
5011.872336272731,0.02753043126692183,-0.007204976429668847,-1.169265642529353
5248.074602497729,0.02596517233781631,-0.007165237899404431,-1.224291940246303
5495.408738576255,0.02818652450640238,-0.007496694624300086,-1.283503223352945
5754.399373371579,0.0280659864724687,-0.00758177702369096,-1.346804392923246
6025.595860743581,0.02919503305856991,-0.007923539415727198,-1.410455306334997
6309.573444801938,0.02899516215591567,-0.008339829768305135,-1.476076408920839
6606.934480075965,0.03041203528263618,-0.008313294780142123,-1.545330414831994
6918.309709189371,0.02311762813002609,-0.008730540578042557,-1.618279079849756
7244.359600749907,0.03096086674587251,-0.008744037353637994,-1.69780427065416
7585.775750291845,0.03274892447441195,-0.009341561888825624,-1.778276161111421
7943.282347242822,0.03311070662893953,-0.009572238258963726,-1.862506761422722
8317.637711026719,0.03126727127130229,-0.00966984617730058,-1.957045433877681
8709.635899560815,0.02844720614142681,-0.01007468783898029,-2.053847607025807
9120.108393559107,0.02734929789611118,-0.01103932687112599,-2.155125489568505
9549.925860214371,0.02810174603958535,-0.01131089339332727,-2.255240987314195
10000,0.03199647909873886,-0.01169803185581359,-2.369768336787509
10471.28548050901,0.03645168773422496,-0.0123583798933891,-2.488014928401213
10964.78196143186,0.03746275919803046,-0.01291122539562433,-2.615023829016025
11481.53621496883,0.03789804171695481,-0.01281325426039057,-2.745124332658342
12022.64434617414,0.03890681244024594,-0.01357753419530756,-2.890222016563797
12589.25411794168,0.02343879607961694,-0.01439513148022866,-3.036267818545667
13182.56738556408,0.04085284420193964,-0.01540453510257052,-3.200264069190958
13803.84264602886,0.04174859688680799,-0.01712265998768086,-3.366713054043231
14454.39770745929,0.03481818622162244,-0.01790790573320833,-3.548760697748037
15135.61248436209,0.04338490144789796,-0.01895054899582362,-3.744417629186671
15848.93192461115,0.04352562587833008,-0.02120336815044247,-3.960471662603567
16595.86907437562,0.04371311802558641,-0.02322906330337849,-4.187437640458342
17378.00828749377,0.04529155290913341,-0.0252143514676024,-4.426190545467762
18197.00858609984,0.04154222767961302,-0.02767418279462674,-4.700311653089585
19054.6071796325,0.04660444395937681,-0.03034780277292759,-4.991177730477176
19952.62314968881,0.04485902931270536,-0.0344543290386293,-5.312349117957225
20892.9613085404,0.04821905862942652,-0.03896952664248007,-5.675576211596358
21877.61623949554,0.04960199369903237,-0.04539937020545071,-6.077393196955285
22908.67652767775,0.05099981544828689,-0.05588234123592432,-6.53482460544663
23988.32919019491,0.05060544492237665,-0.06583403481105291,-7.068521308951645
25118.86431509582,0.0403828890830196,-0.08154690710640866,-7.671184690687046
26302.67991895385,0.05381219886053815,-0.1051271187507657,-8.406505437333109
27542.28703338168,0.05423706234905772,-0.1383136008267755,-9.278411651608906
28840.31503126609,0.04398724741578899,-0.1867080542217582,-10.32425639794897
30199.51720402019,0.05510070079696339,-0.2566687794179504,-11.5885769316198
31622.77660168381,0.05873756131871544,-0.3551522435529866,-13.08163578774801
33113.11214825913,0.05831943084871238,-0.4821642606938003,-14.84345660611158
34673.68504525317,0.05990972993426007,-0.6448595325775972,-16.8429537252108
36307.80547701017,0.06278064179681145,-0.8423794533181984,-19.07627169156726
38018.93963205613,0.06154330556731787,-1.07173635167024,-21.56353821469746
39810.71705534974,0.06411864828492864,-1.33816735243331,-24.25409529874521
41686.93834703357,0.06585196942646714,-1.6303598516836,-27.14291166278343
43651.58322401662,0.06846042684092622,-1.949769255282742,-30.12838063500034
45708.81896148752,0.06930256569454839,-2.290447927942561,-33.20875657145654
47863.00923226389,0.06880112547422219,-2.653856554713643,-36.31009852265841
50118.72336272725,0.06764870460431216,-3.026847893201896,-39.28957919221617
52480.74602497729,0.0761058579767597,-3.407488683490968,-42.13445587971431
54954.08738576246,0.07714199678856645,-3.795278138693159,-44.85189488959077
57543.99373371573,0.07886572831977187,-4.188094151264865,-47.43944754889921
60255.95860743582,0.0813489551016523,-4.580518015698051,-49.85752069259937
63095.73444801934,0.08403073017058529,-4.983114312836518,-52.1391370367444
66069.34480075965,0.08588258828612835,-5.381544443303702,-54.30971725983523
69183.09709189367,0.08860758880477368,-5.790236576842778,-56.35086147253287
72443.59600749904,0.09130441158116775,-6.186588048123171,-58.288624463715
75857.75750291845,0.09092254227039293,-6.590843147261889,-60.00681757849438
79432.82347242819,0.08334782278478314,-6.995504208207927,-61.74328643818829
83176.37711026713,0.08969285604841774,-7.398517612465902,-63.35661411839987
87096.35899560807,0.09463290093766778,-7.802186142567096,-64.92962511437685
91201.08393559101,0.09681326194377006,-8.209344537530452,-66.38942731401585
95499.25860214366,0.0928952926837376,-8.612754873665855,-67.79669277887388
100000,0.1010229051559264,-9.013453819435739,-69.27282256898815
104712.85480509,0.1058502765620566,-9.422987110276157,-70.40839071043607
109647.8196143186,0.107869262552045,-9.83088671719899,-71.65835962342915
114815.3621496883,0.1111972990706727,-10.23796962536121,-72.84560627047496
120226.4434617413,0.110678843386366,-10.6439174879756,-74.06280410596628
125892.5411794167,0.1079582146560464,-11.04596143885128,-75.1092272687093
131825.6738556408,0.1089150329677725,-11.45140322721355,-76.12319093664586
138038.4264602886,0.1089064151843533,-11.8581386385575,-77.07026941071291
144543.9770745928,0.1114655665832386,-12.26250917721089,-78.37925953641002
151356.1248436209,0.1123567989050269,-12.67366972741771,-79.12166169678761
158489.3192461114,0.1128432230313584,-13.08461129310072,-80.10902734734263
165958.6907437561,0.1114702528008114,-13.49981872695331,-81.04145636521395
173780.0828749377,0.09724258258299281,-13.89358767369944,-81.90418062748098
181970.0858609984,0.1069573702530805,-14.30993823384384,-82.835642076657
190546.0717963248,0.1057174250276214,-14.72009659182093,-83.64448253971682
199526.2314968881,0.1038251401424396,-15.11930427471336,-84.5385433691352
208929.613085404,0.09918590915903114,-15.53604797869585,-85.43994640399919
218776.1623949554,0.1012456799121789,-15.9602860869418,-86.64405653425469
229086.7652767773,0.09785705208010245,-16.36136477625588,-87.06054643268878
239883.2919019491,0.09034218819214995,-16.77872892042202,-87.91005790217136
251188.6431509582,0.08318898748577343,-17.20385220423664,-88.91427861718411
263026.7991895382,0.07617907766634197,-17.61323316496796,-89.68997996630162
275422.8703338168,0.07154993446167353,-18.03442158403263,-90.75509007738145
288403.1503126606,0.07259972800877477,-18.45064329586427,-91.63388799071032
301995.1720402017,0.07308388739087282,-18.87128675674115,-92.72909989066102
316227.7660168381,0.06609144191256729,-19.31103742148426,-93.6927461662398
331131.1214825911,0.06238861693783875,-19.72889178057355,-94.86574134338406
346736.8504525318,0.04951160476759636,-20.16775701060226,-95.91209315148242
363078.0547701016,0.04801169320542835,-20.61484579064249,-97.1619436854007
380189.3963205612,0.04347451281991016,-21.04614436798489,-98.32733784394527
398107.1705534974,0.03323350496520896,-21.51260613070222,-99.66555491522629
416869.3834703354,0.03164026789117191,-21.95401869988347,-101.0296168763452
436515.8322401661,0.02452826429907119,-22.419039104811,-102.8919657758518
457088.1896148753,0.01144670504508217,-22.90719474881861,-104.1271689045772
478630.0923226384,0.01238770997972826,-23.37587951629562,-105.9824821622754
501187.2336272725,0.007399044219256298,-23.87515084377121,-107.6832812624594
524807.4602497726,0.0003185991764755561,-24.38694614930398,-109.3768169287296
549540.8738576247,-0.004914153186431936,-24.93734457543832,-111.7796414867682
575439.9373371572,-0.01039756797946255,-25.47456678082117,-113.8960710905739
602559.5860743577,-0.01976258139197162,-26.02460449783725,-116.3075807887901
630957.3444801935,-0.02454647080646442,-26.60294738118527,-118.8658240817295
660693.4480075958,-0.02750790828146681,-27.10813046839942,-121.4041356417889
691830.9709189367,-0.03513703356734606,-27.78686512942773,-124.784335974248
724435.9600749903,-0.04192470597091311,-28.42055729098423,-128.0622441781308
758577.5750291838,-0.04467625583543353,-29.08410080370562,-131.7600902554097
794328.2347242817,-0.05199179360805908,-29.73844503656644,-135.7814242890821
831763.7711026714,-0.05618424235979475,-30.39923318684131,-140.2494550592674
870963.5899560807,-0.06381478553589465,-31.04177740574895,-145.5461836031341
912010.83935591,-0.06806799512445877,-31.77491712481528,-150.9549237823242
954992.5860214358,-0.0751246376035265,-32.42209314934053,-156.9933378805572
1000000,-0.08010070249451358,-32.98904590525304,-164.2237159700378
