#Digilent WaveForms Network Analyzer - Bode
#Device Name: Discovery2
#Serial Number: SN:210321AE3681
#Date Time: 2020-09-23 11:31:50.675
#Start: 135 Hz
#Stop: 2.5e+07 Hz
#Steps: 151
#Wavegen: Wavegen1
#Amplification: 1 X
#Settle: 10 ms
#MinPeriods: 16 
#Channel: Channel 1
#Range: 5.44198 V
#Offset: -0.00025017 V
#Relative: no
#Channel: Channel 2
#Range: 5.4844 V
#Offset: 0.000101632 V
#Relative: yes
#Wavegen Channel 1: Enabled
#Mode: Simple
#Type: Sine
#Frequency: 1 kHz
#Period: 1 ms
#Amplitude: 100 mV
#Offset: 0 V
#Symmetry: 50 %
#Phase: 0 °
#Power Supplies: OFF
#Positive Supply: Rdy
#Voltage: 5 V
#Negative Supply: Rdy
#Voltage: -5 V

Frequency (Hz),Channel 1 Magnitude (dB),Channel 2 Magnitude (dB),Channel 2 Phase (deg)
135.0000000000002,0.02123289622675117,10.72785080405983,179.8389069957631
146.3696867644178,0.02115378182075342,10.72783084829609,179.8265484240196
158.6969274334346,0.02127252995356973,10.72777962321273,179.8106053509758
172.0623671030174,0.02133149984480657,10.72773291560256,179.795779747061
186.5534427912062,0.02109429638580879,10.72798203272857,179.7797707078182
202.2649554531296,0.02124852506154645,10.7278462523837,179.7602617966932
219.2996901710627,0.0211965019217382,10.72782834844848,179.7372676474904
237.7690885768313,0.02139902017729945,10.72768785246364,179.7134746189929
257.7939779055689,0.02152489575575518,10.72757657818679,179.6945431790093
279.505361450306,0.02089959330639536,10.72813077326151,179.6667716227527
303.0452755885669,0.02119434752354966,10.72785219620646,179.635698615636
328.5677189876672,0.02133519596656524,10.72772220425692,179.6084432604776
356.2396600675847,0.02129519668624139,10.72773271391388,179.5756815191949
386.2421293122592,0.02111242374869131,10.72799336854647,179.5370783987841
418.7714035752368,0.02116219808222169,10.7279073864813,179.4997307763832
454.0402901274282,0.02076937445341657,10.72825860610035,179.4610862972754
492.2795188472368,0.02048795865043385,10.7285274550804,179.4121121503718
533.7392516608008,0.02068971925954301,10.72834767205269,179.3622550465408
578.6907191071551,0.02151687323592085,10.72749760827731,179.3079998289928
627.42799473474,0.02094362652797575,10.72821005263504,179.252382423177
680.2699189374102,0.02145468220135478,10.72769958268564,179.1850782417578
737.5621848157356,0.02118823674010056,10.72795585374403,179.1144816044482
799.6795997093238,0.02144568736209748,10.72774101093831,179.0376347495049
867.0285371951732,0.0215535682483226,10.7276784472599,178.9592072628844
940.0495955930996,0.02068603957115809,10.72852385190595,178.8645900137552
1019.220480370216,0.02149430977411645,10.72788347519844,178.7634981709849
1105.059129301243,0.02091549426717313,10.7286958954077,178.6512524102596
1198.127100829501,0.02101315822404077,10.72924615370717,178.5275023620426
1299.03324779536,0.02117336021844096,10.72925600436622,178.3862986198974
1408.437700565711,0.02136173517265933,10.72954259104102,178.2360658807087
1527.056185622217,0.02057223617021928,10.73100869261644,178.0642739463932
1655.664707860665,0.02153191493290793,10.73086655404867,177.86811371565
1795.104627233086,0.02205550064465958,10.73147989536879,177.6504968829408
1946.28816294417,0.02155746876778212,10.73360045862651,177.4040597178611
2110.204361210603,0.02077036712350536,10.7358167233045,177.1203308758429
2287.925565624474,0.02231660854930797,10.73634390580144,176.7930830467024
2480.614432450049,0.02198161709497603,10.73832413839434,176.4147631344573
2689.531536748197,0.02286696721247429,10.73974332213452,175.9684393466048
2916.043619087822,0.02364664844062907,10.74087752589302,175.4438479373771
3161.632526794536,0.02344546745107624,10.74289184231411,174.80644957705
3427.904908230441,0.02328554317493804,10.74361462561654,174.0409652117822
3716.602723525177,0.02502019714700394,10.74126189605014,173.1006132543438
4029.614640519712,0.02514803502800409,10.73715700041891,171.9604332581676
4368.98839047541,0.02469633555712564,10.72877864373777,170.584453866526
4736.94416437972,0.02567406924308862,10.71358826030322,168.9710273834276
5135.88913748737,0.02124474530223601,10.69267046344502,167.1183376393817
5568.433217117037,0.02147164480566042,10.66508683334688,165.0431370790687
6037.406116725912,0.02727269546215022,10.6319471362453,162.7409830954082
6545.87586796111,0.02993486626132037,10.58959107572588,160.1919616843305
7097.168891794268,0.03120317342562897,10.53959011867063,157.365076506498
7694.891760045132,0.02851786967927499,10.47978746654416,154.2552558213246
8342.954789658559,0.02818735371614464,10.409746326898,150.8371485375568
9045.597624089027,0.03408177501844933,10.32684874930937,147.0839359072286
9807.416969147165,0.03537943720558193,10.22844645259514,142.9812780009913
10633.39666475633,0.02771609075843536,10.11222269101622,138.5029925149939
11528.94028934952,0.03827627552559906,9.97510763660191,133.6042543829921
12499.90651020562,0.03591835187073925,9.813367841781458,128.2715441438752
13552.64741098741,0.03950700163864053,9.622406671603114,122.4835340299281
14694.05004722091,0.04365649793877811,9.417699035416183,116.5691792525132
15931.58150157328,0.04371651758986214,9.516512064885889,115.5868268640595
17273.337733682,0.04603390751393605,9.600898058435202,115.443296727114
18728.09654411133,0.04717714569379482,9.604781068766204,115.3875402350855
20305.37499892844,0.04681922469736391,9.496366900824931,115.1536662297604
22015.49169057175,0.05148401330208197,9.270361669032916,112.8710832038942
23869.63424232318,0.04777005693743479,8.953950400289955,109.8580556493802
25879.93249800038,0.05480159614986757,8.615897496042944,108.2344245261171
28059.53787567837,0.0549310596777939,8.206581835571278,106.6069583139339
30422.70940457297,0.04834770133080865,7.700440258703688,105.1126748662836
32984.90700794255,0.06119151127888265,7.095545442553394,103.7118378157904
35762.89264226655,0.05535561211148531,6.429134578815255,102.4284651148063
38774.8399543559,0.06460389366459345,5.726247096985918,101.2134171130503
42040.45317377402,0.06801108429677026,5.022442519263125,100.0914416288065
45581.09601836636,0.06911551237348212,4.320334206928143,99.04974612397004
49419.93145620089,0.07511212939535851,3.617713830717393,98.04880368736627
53582.07323824523,0.06835690499621855,2.915953102639546,97.10616241866366
58094.75019311129,0.08177310014724651,2.212174252084003,96.23194480495253
62987.48435868727,0.0834933270155761,1.509660496026317,95.38751196805904
68292.28411599771,0.0895384407029394,0.8094515701463102,94.5771485963912
74043.85358877919,0.09471771614007199,0.1045869894906849,93.80342732579693
80279.81967866656,0.09689824883529896,-0.5940620797237292,93.07167329444516
87040.97822126182,0.09857995813607821,-1.296776017061963,92.35610111596739
94371.56087344131,0.1069195557805125,-1.995945721754309,91.62854263483905
102319.524477887,0.1082924725611829,-2.69568675410605,90.92084557348738
110936.8647978701,0.1108233735182108,-3.395401732401902,90.2271366107948
120279.9566747466,0.1119755662393017,-4.0943549036174,89.47390909339913
130409.922833484,0.1115714436556138,-4.789873521602324,88.76297382085716
141393.0337489549,0.1146256618894281,-5.487045810305268,88.0731469191731
153301.1411889275,0.1145137691358329,-6.182549010101633,87.32870388771187
166212.1482700079,0.1133626831134903,-6.876863086972826,86.57094740365002
180210.5191016442,0.09607470019039889,-7.565377651695958,85.73362150392506
195387.8313523015,0.1068974194205527,-8.254660477056195,84.88427821208093
211843.3753527052,0.1011036060655665,-8.952091066595514,83.9665402164444
229684.8036554987,0.09727153438203474,-9.630945618056549,82.9776612997309
249028.8353007564,0.08544344101931521,-10.31852607026698,81.93407832540083
270002.0193946622,0.08426683084454116,-10.99691678044833,80.86503390078811
292741.5629967173,0.0746498622039594,-11.66381023056706,79.6374789319711
317396.2287315223,0.06518172460553785,-12.32684310679577,78.29230049139116
344127.3079973353,0.05870688709736732,-12.98711011673872,76.87154148400047
373109.6761381644,0.04037463323303178,-13.63782804986348,75.31054866658666
404532.9364823435,0.03542093281086641,-14.27793236325573,73.56810765622213
438602.6607319298,0.02693343097013218,-14.91907522033349,71.69781538472638
475541.7338175753,0.01292726853494793,-15.54218709336995,69.6587025279235
515591.812016937,0.002902221013213825,-16.15467606092468,67.39229843910206
559014.9038756844,-0.007541768161240065,-16.76324836271017,65.0788237260366
606095.0842735177,-0.01933791823335167,-17.35636717415608,62.66357589000861
657140.352848651,-0.02560231719199806,-17.94298517169982,60.08079927727209
712484.6489386357,-0.03857403217920598,-18.50302487268315,57.51278388080124
772490.0362192898,-0.04617588104034827,-19.05097890805876,54.84437779033318
837549.0713337095,-0.06160951747363912,-19.58479870959483,52.23645858990163
908087.3720069913,-0.07162207002963153,-20.11968290336707,49.73140106782667
984566.4014473053,-0.07961639529590794,-20.61991598792086,47.27504600138717
1067486.487248976,-0.09981348310300783,-21.09776785806709,44.91638879169865
1157390.094547267,-0.1016720661219348,-21.56785625174567,42.80786862298123
1254865.374837947,-0.1161583003743915,-21.98334839870127,40.9929651269715
1360550.013678101,-0.1422916939603211,-22.32312295805582,39.30546809417295
1475135.402439907,-0.1490409581144219,-22.60776706619029,37.96104647750575
1599371.161409125,-0.1701086494989638,-22.81183331501791,36.40285286586636
1734070.043818491,-0.1948368387402583,-23.0822253876066,34.22535681510772
1880113.25289831,-0.2228419268842296,-23.6541499710056,32.05539913566319
2038456.206728562,-0.256162835121292,-30.30644598517284,29.14262038211007
2210134.788606239,-0.2933918472428857,-168.1201236601443,151.0296541527767
2396272.12381805,-0.3389887043719034,-169.4576693032395,-93.25549076869014
2598085.927152248,-0.3874377952035126,-170.8546137976856,-123.8250836289723
2816896.46921715,-0.4470382147061257,-172.2051639666327,142.5525305143997
3054135.213682281,-0.5156097397810562,-173.5109625590562,129.8901460279589
3311354.181947057,-0.59560970268776,-174.8338651164278,-98.71025508714384
3590236.106500992,-0.6868220280850013,-176.160038300271,152.4639363817176
3892605.439398905,-0.7927220490778774,-177.4747229850955,27.88660096445307
4220440.287868781,-0.9114868924568393,-178.7708689469335,-14.9761507606351
4575885.355135412,-1.047545637464843,-180.0372206536036,139.9129534778069
4961265.97111893,-1.234260894729639,-181.2781844358064,-32.3954934137654
5379103.304797337,-1.385484495747609,-182.5267783518548,100.2766949296935
5832130.857752809,-1.583862064957033,-183.7352110077972,21.3422160962995
6323312.346802756,-1.808068567967414,-184.9156661474734,-154.4219929747059
6855861.092704384,-2.063014949624699,-186.0873385258174,53.37228793752744
7433261.041774059,-2.339097122669725,-187.2186153809241,62.30894286033121
8059289.557945298,-2.644426204565864,-188.3247542709743,45.86727235277768
8738042.134371808,-2.979085938373545,-189.4221980737562,-1.633044431715588
9473959.186239136,-3.339067287405484,-190.4805532112076,42.86538531703805
10271855.10006442,-3.750281120923948,-191.5120110338969,-145.0619792617061
11136949.72952528,-4.196754842342661,-192.5011072540892,148.1989311162446
12074902.54386428,-4.573212371807653,-193.5481782688441,127.4124327335348
13091849.65226876,-5.045260667764832,-194.5344804896698,-4.586552563716193
14194443.94644019,-5.490612547404698,-195.5385885474966,-45.42278160029097
15389898.62396689,-5.961505930476827,-196.5341539507063,158.5122290956946
16686034.37723092,-6.434773434368268,-197.5370412820954,-96.77100284375285
18091330.55655994,-6.908430160687468,-27.01807058822875,-4.075594434177013
19614980.64233489,-7.371020645792827,-27.06403421679006,-3.326043828967272
21266952.38895312,-7.945575983204435,-27.02528058621563,-2.259048751193546
23058053.03410995,-8.212968889311107,-26.90815482169741,-1.421442316643109
25000000,-8.895688067088068,-26.60147304240922,0.08451715932449133
