#Digilent WaveForms Network Analyzer - Bode
#Device Name: Discovery2
#Serial Number: SN:210321AE3681
#Date Time: 2020-09-21 11:30:53.359
#Start: 0.82003 Hz
#Stop: 1e+06 Hz
#Steps: 151
#Wavegen: Wavegen1
#Amplification: 1 X
#Settle: 10 ms
#MinPeriods: 16 
#Channel: Channel 1
#Range: 5.44198 V
#Offset: -0.00025017 V
#Relative: no
#Channel: Channel 2
#Range: 5.4844 V
#Offset: 0.000101632 V
#Relative: yes
#Power Supplies: ON
#Positive Supply: ON
#Voltage: 5 V
#Negative Supply: ON
#Voltage: -5 V

Frequency (Hz),Channel 1 Magnitude (dB),Channel 2 Magnitude (dB),Channel 2 Phase (deg)
0.8200300000000011,0.004721429150842377,-5.823199584444802,-0.01037615555559768
0.9003351573298118,0.004438779088914155,-5.823129052287315,-0.01512318308023453
0.9885045614478667,0.004740239645336821,-5.822864756779207,-0.01122085451125088
1.085308354392401,0.004678137481165492,-5.822746516753345,-0.01499081076568132
1.191592097854028,0.004859908673146439,-5.82264072300354,-0.01599750092070451
1.308284158987311,0.004689171607194701,-5.82250968609964,-0.01767575874016103
1.436403819511408,0.00484224611206492,-5.82289075828082,-0.02029970845268281
1.577070178931187,0.004808913589143958,-5.823058227420123,-0.02041224606877368
1.731511929646675,0.004881928504512061,-5.823090452663543,-0.02345771725848067
1.901078089334394,0.004759104047470299,-5.822914947401675,-0.02413375498968762
2.087249784345858,0.004862350176253638,-5.82274637599394,-0.02588824062208062
2.291653187048817,0.004794443728341956,-5.823313059568727,-0.03019865541719469
2.516073720116282,0.004611209849050749,-5.822977107314595,-0.03196793699511602
2.762471651835048,0.004837105407693519,-5.823256874408342,-0.03648880610194283
3.032999218655475,0.004803307007960011,-5.823423419428629,-0.04007170184775077
3.330019424544668,0.004541570811677347,-5.822963859201563,-0.04362203517584362
3.656126681351596,0.004753398751161591,-5.822921053955065,-0.04802532166092988
4.01416947047352,0.004477575869401836,-5.823037413126348,-0.05315645661934809
4.407275223769007,0.004638888431333852,-5.822979933901946,-0.05674070013483856
4.83887764104709,0.0046183086689564,-5.823028897966976,-0.06365785868242568
5.312746682745541,0.00462020459766525,-5.822925267673745,-0.06812032922324107
5.833021499778223,0.004562059631909727,-5.823093522679269,-0.07570005474302377
6.40424658818701,0.004767192580136649,-5.823338577936895,-0.08260786880654791
7.031411484402086,0.004453254815589852,-5.8231746552957,-0.09115092319385099
7.719994347840675,0.004285954873643894,-5.823068765162378,-0.09762539908095391
8.476009811529297,0.004411941066324119,-5.822863336314983,-0.1079877879863602
9.30606151871547,0.004619884494162931,-5.823109116974652,-0.1211378698378667
10.21739980436517,0.004396932314132162,-5.823360378988264,-0.1301712616937039
11.21798502538284,0.004676717309017055,-5.823401438308617,-0.14497597996575
12.31655709273017,0.00446902049974981,-5.823326494409921,-0.157964782715311
13.52271181279318,0.004867740829757183,-5.824096230588558,-0.1732506949578685
14.84698470482401,0.004725090580183961,-5.823688679126182,-0.1898043242144638
16.30094302658564,0.004462781755832759,-5.823506186595456,-0.2091411949222106
17.89728681202545,0.00468377154887122,-5.823748570107269,-0.2307126261385779
19.64995980352142,0.004804290168633154,-5.823723960364168,-0.2503773606195239
21.57427124767132,0.004444599114668576,-5.823658464712429,-0.2747428121077071
23.68702961848728,0.004708843941949714,-5.823285678315717,-0.3041451384156204
26.00668943604092,0.004544853162081652,-5.823658864238449,-0.3331444830322852
28.55351246298967,0.004620590122548049,-5.823676800699124,-0.365900552434379
31.3497446870047,0.004351912030120815,-5.82386802328927,-0.4004132574156927
34.41981063500568,0.004562591142039392,-5.823582014670311,-0.4400101578141857
37.79052671649833,0.004571288333797332,-5.8237866251404,-0.4832650709814175
41.4913354595258,0.004638095889805959,-5.823892366265191,-0.5316418053336633
45.55456268523838,0.00444213950431069,-5.824152059947332,-0.5804414260905446
50.01569986744975,0.004465301268056064,-5.832653014380446,-0.8799189411959603
54.91371414353249,0.004475699321802367,-5.844832674635071,0.8608468509756193
60.29138868453773,0.004274755312703309,-5.55195117047178,-0.8061960478208903
66.19569639760259,0.004177821328945812,-5.664620978810707,0.2762824423791344
72.67821022485994,0.00412214175119418,-5.831719941291645,-1.417621963570369
79.79555362273111,0.004472565523115533,-5.821938184060361,-1.032481660485303
87.60989515644647,0.004247346840716346,-5.825770901601319,-1.116259207553441
96.18949152997769,0.004688784661687589,-5.827240420143237,-1.233578227551126
105.6092837946378,0.004533450537347425,-5.805006296330916,-1.178064999014623
115.9515519441163,0.004076256815460433,-5.855817019471543,-1.807861237561283
127.306633613699,0.004261506216689409,-5.879648433206529,-1.490315855077846
139.77371316137,0.004360326281327998,-5.859304222501037,-1.792781999706477
153.4616880232597,0.004451944531352794,-5.831152756267967,-1.927881059049454
168.4901199108811,0.004324045266765226,-5.84013865793283,-2.234053603769979
184.9902791586671,0.004423462861827413,-5.819405994759565,-2.280057173473175
203.1062913439798,0.00435587428150687,-5.843947524539546,-2.652544945263386
222.9963961950861,0.004379212010411697,-5.839621297418976,-2.803316441069029
244.8343297834026,0.003892195033831738,-5.836999545170594,-3.138759576986899
268.81084207319,0.004014298021350331,-5.851487686556053,-3.435959138996367
295.1353630841846,0.004287971059296933,-5.843700757551598,-3.690457594947492
324.0378322207607,0.004243919774669735,-5.849138476051977,-4.168608124679089
355.7707067464472,0.004327721515579462,-5.866068154457812,-4.447200590212049
390.6111669474285,0.004390134144237069,-5.875230295688819,-4.990990114838432
428.8635372466787,0.004049194732635648,-5.885174800928401,-5.415526307401251
470.8619444166769,0.004253178837112952,-5.870265985848277,-6.020629820829328
516.9732361096649,0.003887304209910764,-5.899548399275655,-6.514350677951953
567.6001851982201,0.003957321774223026,-5.927996950218776,-7.288911271089901
623.1850079154044,0.004161956011052,-5.911998780123971,-7.866469142944226
684.2132265247536,0.004210492781016507,-5.956303938710353,-8.607896395897672
751.2179102597484,0.00384732543155528,-5.969381739166621,-9.413267230225614
824.7843315765058,0.004701439015843918,-5.991142084355059,-10.29484142020218
905.5550783911497,0.003974708694021403,-6.023609296278493,-11.2575678929119
994.2356669562146,0.003834761013493372,-6.087055575845886,-12.31137841111038
1091.600704403413,0.00376626415539976,-6.132722579541324,-13.50612528411256
1198.500654781385,0.004348742225199201,-6.186712485613558,-14.56096690875169
1315.869267688349,0.003961136448224887,-6.264333266697664,-15.91841194190104
1444.731734387342,0.003915372566793238,-6.344122118096994,-17.47847842952831
1586.213642645998,0.005597923978486481,-6.441161707673824,-19.03099849525038
1741.550808519657,0.004924055696790179,-6.557939890535261,-20.67180974779097
1912.100070956433,0.004731599989564409,-6.69661081374799,-22.45386951826754
2099.351143512923,0.006399758041926592,-6.850625336471702,-24.2644670250656
2304.939626702952,0.004916513942774926,-7.031928939102209,-26.19963111052115
2530.661294639607,0.00650622824831522,-7.242803174057928,-28.0901059417053
2778.487780761445,0.006332284499160562,-7.481760790734482,-30.28206304447556
3050.583799654662,0.008216460863382506,-7.747248480594054,-32.45087654706589
3349.32605540023,0.007783764669423635,-8.058338356200492,-34.56627154452212
3677.324001606763,0.008979400977897029,-8.401998511271442,-36.59903520923447
4037.442634463756,0.009667257170889773,-8.778476755169539,-38.8339975801443
4432.827517907886,0.008457711617618584,-9.188901099689584,-40.9299724481839
4866.932259492348,0.00975143048284104,-9.634650887420715,-42.94988235556887
5343.548676955201,0.01303614364624377,-10.11352067810398,-44.84936736154546
5866.839918985832,0.01236949150085833,-10.62925831036341,-46.61660333205646
6441.376829492729,0.01299083072827475,-11.17374162664985,-48.20005835579289
7072.177873006995,0.01715363592223429,-11.75391444187349,-49.66458064184287
7764.75296996226,0.007681452264325367,-12.34147376877338,-50.96098276730694
8525.151624743103,0.01888892824958853,-12.95554095552339,-51.97339727651902
9360.015766890912,0.0215213377313129,-13.57870134753234,-52.83591036427246
10276.63776702467,0.0239039969525942,-14.22128884278736,-53.44571306598928
11283.02413423366,0.02305969397963766,-14.87347243300552,-53.7989900108617
12387.96545132653,0.0274250110639478,-15.52609555861632,-53.99130300099328
13601.11315880679,0.02900783855767448,-16.17388112969992,-53.90409861508433
14933.06385826719,0.02939709569832999,-16.8292260150322,-53.61901416848586
16395.45187157677,0.03229196195103083,-17.47484241977305,-52.99786816103995
18001.05086434569,0.0335043752665594,-18.09786249966188,-52.27987130318115
19763.88542132919,0.03558358795783847,-18.73178684721759,-51.29417838722846
21699.35354835892,0.0368277343958156,-19.32212767788953,-50.05107139532792
23824.3611708314,0.03159106041922333,-19.89094696718893,-48.65731746856104
26157.46980357148,0.04067425208277762,-20.44673705247892,-47.06265979799711
28719.05868193639,0.03221486800766305,-20.97169269881812,-45.30697945241365
31531.50277034402,0.04586035025374276,-21.46118225439447,-43.55701917069636
34619.36820309384,0.04815137902187985,-21.90780541100525,-41.6012370722893
38009.6268646161,0.05077536743011593,-22.32754454869351,-39.4493555749632
41731.89198346579,0.0562884754978244,-22.73562353772105,-37.35921835876312
45818.67679792731,0.05757061506562639,-23.07296267014326,-35.27623411833472
50305.67855262072,0.04688509177840874,-23.37733169454186,-33.09144280814733
55232.09030676516,0.06542447818859914,-23.65537572750733,-31.16092909487288
60640.94327767973,0.06861662456618838,-23.90033147406605,-29.07106989499809
66579.482709825,0.07154508887387973,-24.10849666293856,-26.99062381525077
73099.58055252576,0.07823597680476801,-24.30976767142209,-25.15062189395407
80258.18855103025,0.08425152754164834,-24.47835862068901,-23.2685199250266
88117.83570856845,0.08539241807948351,-24.59040351963707,-21.74903839249699
96747.17446463712,0.0925808363554689,-24.76595963510209,-19.95063961615462
106221.5803602716,0.09111876719512227,-24.81202796876024,-18.51044344627091
116623.8104282603,0.09746133570804234,-24.93355166217313,-17.00445422587218
128044.7260592048,0.09931063084316606,-25.01646475645159,-15.90059190192819
140584.0866575204,0.09935788090262603,-25.11063526306684,-14.62759103853638
154351.4210197996,0.0984278840334239,-25.14103468971015,-13.48734224180052
169466.9840468531,0.09964252246674064,-25.20662553146087,-12.55846701783233
186062.807146119,0.08221253822225849,-25.25107260675701,-11.57081097419231
204283.8514994904,0.09358362066142104,-25.25247237288541,-10.82958453440328
224289.2742701281,0.08117661813875444,-25.29669206886403,-10.02662581618732
246253.8188083177,0.07630403976152379,-25.33945828140266,-9.414863964881864
270369.3409995402,0.06921191239604547,-25.36244275516524,-8.704729215329351
296846.4850871044,0.05798567684338902,-25.39666715001882,-7.9486766637568
325916.5236073062,0.04934461889405131,-25.42605529886116,-7.495611272934624
357833.3775085894,0.03672972980944592,-25.46257002036567,-7.077540162191099
392875.8341000368,0.02314430977493488,-25.4928814410314,-6.71647492746871
431349.982202525,0.01028388842697781,-25.50575784797651,-6.415187400019107
473591.8857731075,-0.0005687815194419263,-25.55200233579401,-6.09288477372462
519970.5193561849,-0.0173889443018312,-25.51759655122427,-5.022766783768844
570890.9910020526,-0.02427442869862899,-25.6110581288902,-5.098894088984679
626798.0808043663,-0.03963719012572079,-25.67356759785143,-5.012891957577169
688180.125964931,-0.05065703961937591,-25.70050987844586,-4.956139042101547
755573.2863210905,-0.05891814393307244,-25.74845674630146,-4.370389420367871
829566.2275942356,-0.07099676216429772,-25.76563948042432,-4.355968228761526
910805.2632666515,-0.08812646973517461,-25.80492259620593,-3.893851415958608
1000000,-0.09531502815340409,-25.90358297137774,-3.644951986385452
