#Digilent WaveForms Network Analyzer - Bode
#Device Name: Discovery2
#Serial Number: SN:210321AE36B6
#Date Time: 2020-09-20 21:06:41.813
#Start: 15420 Hz
#Stop: 17420 Hz
#Steps: 151
#Wavegen: Wavegen1
#Amplification: 1 X
#Settle: 10 ms
#MinPeriods: 16 
#Channel: Channel 1
#Range: 5.42919 V
#Offset: -0.00029355 V
#Relative: no
#Channel: Channel 2
#Range: 5.49309 V
#Offset: 0.000174127 V
#Relative: yes

Frequency (Hz),Channel 1 Magnitude (dB),Channel 2 Magnitude (dB),Channel 2 Phase (deg)
15420,0.01188681666229834,-21.53702437505492,73.14452274350458
15433.33333333334,0.01064538473453927,-21.41230115590297,72.84664868421258
15446.66666666667,0.009586262493086639,-21.28873051565865,72.62577144759423
15460,0.008638645529337522,-21.17607641903071,72.35284755915785
15473.33333333334,0.007498069646690433,-21.04503363183249,72.01459029123437
15486.66666666667,0.005724572984177683,-20.92322969979786,71.73807565254334
15500,0.004994151141939466,-20.79433489265796,71.45190700524171
15513.33333333334,0.005875874001342332,-20.66594979592149,71.18388021426608
15526.66666666667,0.007880201953346168,-20.54083434071622,70.8126720322404
15540,0.009461405401002992,-20.40290876341074,70.50147462471674
15553.33333333334,0.01233092358214479,-20.26682562017248,70.15399778005769
15566.66666666667,0.01245925699724716,-20.13369216560384,69.86238119460307
15580,0.01422218271550886,-20.0028194977622,69.47016058081954
15593.33333333334,0.01516389642346958,-19.86144781077838,69.08559257874703
15606.66666666667,0.01590551081104082,-19.71998861903683,68.73601372453396
15620,0.01689843583303257,-19.58171019294671,68.32098953104159
15633.33333333334,0.01613332385313408,-19.43495466515554,67.86817329424284
15646.66666666667,0.01879711514234406,-19.2873808810849,67.47832810031321
15660,0.01843294041107815,-19.14093815589445,67.06213280070109
15673.33333333334,0.01783561200076934,-18.98734821968741,66.56065854411668
15686.66666666667,0.01861958254995125,-18.84154613094917,66.13208341001236
15700,0.01942631652738245,-18.68744124176425,65.66955964647957
15713.33333333334,0.01987241393190672,-18.52977729997882,65.1486150785918
15726.66666666667,0.0198646498976747,-18.37215515607447,64.63705389831271
15740,0.02051924724659683,-18.21588799424472,64.10753001233189
15753.33333333334,0.0192656435481466,-18.05632278677878,63.52111220552591
15766.66666666667,0.02073802489137858,-17.89016290148721,62.96514429986554
15780,0.02049119129042421,-17.72346469037743,62.38742874909614
15793.33333333333,0.01922664909123725,-17.55704340178403,61.72276853957169
15806.66666666667,0.01943962152307026,-17.38630807901432,61.1071714202256
15820,0.01977752958189971,-17.21417329355299,60.43845277894341
15833.33333333333,0.02112007442036776,-17.04420238282957,59.77053728589578
15846.66666666667,0.01987433076066084,-16.86701563205656,59.01594903265257
15860,0.02011462325403814,-16.69325784943021,58.25815888028679
15873.33333333333,0.01924026514943899,-16.5081670229056,57.4619019462957
15886.66666666667,0.02036847168527338,-16.33122272799285,56.65870923804469
15900,0.01950791957228973,-16.143065425833,55.79378854293368
15913.33333333333,0.01919335076910574,-15.9527013145458,54.85190071809657
15926.66666666667,0.0196627977462734,-15.77342980074763,53.93708004394868
15940,0.01857620193011563,-15.58042196038372,52.9810604510469
15953.33333333333,0.01970971209319247,-15.39214708016571,51.96480566072569
15966.66666666667,0.01821930696357456,-15.19849382754557,50.87658032395963
15980,0.01985937650580402,-15.00627999076454,49.7709780077101
15993.33333333333,0.02009554469919306,-14.81431426748824,48.60374115640502
16006.66666666667,0.02040890242224407,-14.61823300546077,47.37635322060638
16020,0.02028334928566099,-14.42546405124117,46.11173238312423
16033.33333333333,0.01957321560368546,-14.22687309180112,44.76360340922966
16046.66666666667,0.01979841966763343,-14.0402820215848,43.38388125192755
16060,0.01931288068252333,-13.84832647109511,41.92739631926782
16073.33333333333,0.02053158455719851,-13.65667277009337,40.40232601171839
16086.66666666667,0.02015210948948911,-13.46779157262834,38.83461274774084
16100,0.02038658578477782,-13.28430017090683,37.16242772732551
16113.33333333333,0.02035455089401256,-13.10058229965315,35.42553874644915
16126.66666666667,0.02026882365079657,-12.92516603591076,33.63105797259976
16140,0.01996655694066692,-12.75332492973186,31.76046466501054
16153.33333333333,0.02044210673559284,-12.58844636376115,29.81019850543088
16166.66666666667,0.02110240029607092,-12.4336829701171,27.79721406543271
16180,0.02015711227430486,-12.28475780765718,25.68980126582753
16193.33333333333,0.02046121422476474,-12.14414344705041,23.53291650363524
16206.66666666667,0.01995491344803176,-12.01862739244941,21.34335194577655
16220,0.02077182963282702,-11.90356351676234,19.04408743027749
16233.33333333333,0.02056471029283521,-11.80015119470043,16.71519377280761
16246.66666666667,0.01928637721494171,-11.70964301852422,14.3258983231236
16260,0.01875342995557913,-11.63541064158651,11.90569019744192
16273.33333333333,0.019690658228916,-11.57383335965611,9.460116187471527
16286.66666666667,0.01997363643293438,-11.53001843890989,6.971605491078304
16300,0.01954582625219861,-11.49814737508739,4.503077516178919
16313.33333333333,0.01906337145548576,-11.48960554151699,2.006515257252133
16326.66666666667,0.01980974895357541,-11.49581495728231,-0.4872446424420218
16340,0.01971811599506516,-11.5146691804329,-2.948334012359766
16353.33333333333,0.0201578980995316,-11.5488859990049,-5.387050190906479
16366.66666666667,0.01930824694977739,-11.59739167972346,-7.78549558620702
16380,0.02046303666533608,-11.66449730781441,-10.12289214581543
16393.33333333334,0.020144515474305,-11.74012848079687,-12.45957737953326
16406.66666666667,0.02118335764065086,-11.83126643614643,-14.71739443532616
16420,0.02041513707321004,-11.93425655188539,-16.92939141230961
16433.33333333334,0.02057778646691831,-12.04457199890198,-19.08942729934292
16446.66666666667,0.02098916433056,-12.16778883142037,-21.18104446907378
16460,0.02057565768766091,-12.29880788979021,-23.18385701925165
16473.33333333334,0.02070272193504736,-12.44031359700978,-25.13957897463311
16486.66666666667,0.02077632636743816,-12.58657793401961,-27.04578261851276
16500,0.01958111773823451,-12.74016920415391,-28.86748801245709
16513.33333333334,0.02056843165787612,-12.89647707563961,-30.59285306335862
16526.66666666667,0.02061084451603801,-13.05588649648089,-32.29273759321158
16540,0.02059742617551428,-13.22593099590767,-33.90825929824052
16553.33333333334,0.02016290566419951,-13.39665347148886,-35.4604763304696
16566.66666666667,0.02019670668007742,-13.56917322198524,-36.94858550107965
16580,0.01922982264660244,-13.74146568828601,-38.38605878226934
16593.33333333334,0.01980997752446254,-13.92003491887394,-39.74051262085236
16606.66666666667,0.01961262493420644,-14.09747925676874,-41.10644122915568
16620,0.01798359204329992,-14.27697925862944,-42.35780390452543
16633.33333333334,0.01847266168771119,-14.45146938925083,-43.5890168025478
16646.66666666667,0.01752919939146693,-14.63533854299034,-44.75858947427035
16660,0.01620955487904346,-14.81344142463203,-45.8927105309514
16673.33333333334,0.01459316271486675,-14.99255238628878,-46.94942005227172
16686.66666666667,0.01518698299052564,-15.1701496442157,-48.01879008214115
16700,0.0140400709130881,-15.34778286614197,-48.99922240447536
16713.33333333334,0.01225339585436911,-15.52671189506668,-49.9519458695529
16726.66666666667,0.01191272151579987,-15.69921487137118,-50.88858205974314
16740,0.009468082877383354,-15.86828100532024,-51.77460546282371
16753.33333333334,0.008222045607843146,-16.04227447146833,-52.60533065128746
16766.66666666667,0.006625186026983156,-16.21596118413784,-53.41833349835651
16780,0.004468204769265017,-16.38374018456431,-54.19815605885795
16793.33333333334,0.006085011709199514,-16.5497694738388,-54.98202854676522
16806.66666666667,0.008145819563450013,-16.71817672650062,-55.66635620218675
16820,0.009278783910929947,-16.88246741413593,-56.3712597794937
16833.33333333333,0.01077869036636847,-17.04446545224765,-57.08217716845331
16846.66666666667,0.01196793753017452,-17.20662228705276,-57.67484590685409
16860,0.01371451248020845,-17.36299628819451,-58.31996282059231
16873.33333333333,0.0140804456339555,-17.51554954673916,-58.91214911775739
16886.66666666667,0.01546847320539974,-17.67466404872464,-59.49871220679671
16900,0.01568843232916126,-17.82142406504508,-60.03044713474293
16913.33333333333,0.01698019732203866,-17.97222151875563,-60.57177415532715
16926.66666666667,0.01857524931024599,-18.12717531643348,-61.13067070448363
16940,0.01776071407238169,-18.27519585656943,-61.6169108048497
16953.33333333333,0.01848064821037312,-18.4186554674266,-62.09674290826997
16966.66666666667,0.01999118742630424,-18.5602315107466,-62.5815078184956
16980,0.01983175443231504,-18.70286506186363,-62.98498993593391
16993.33333333333,0.02071515896031089,-18.84082767916667,-63.44587006319739
17006.66666666667,0.02046945910008044,-18.97864228505767,-63.87221382272375
17020,0.01948038597198766,-19.11207108546986,-64.2293514348693
17033.33333333333,0.0199645965162722,-19.24511283180665,-64.658708575506
17046.66666666667,0.0197703796383042,-19.37681177162818,-65.03466432284881
17060,0.02009006069317571,-19.51674923510376,-65.43001432333932
17073.33333333333,0.02167848278385713,-19.64215432804302,-65.7771752804116
17086.66666666667,0.02154247080283053,-19.76962999994476,-66.15304071624433
17100,0.02110729014222212,-19.89129107366708,-66.44884701190634
17113.33333333333,0.02101355407474074,-20.0222846643701,-66.8494986955176
17126.66666666667,0.02028212568385248,-20.14682666119899,-67.17093047094009
17140,0.02156248325210138,-20.26329989116894,-67.42143366962716
17153.33333333333,0.02127284898904239,-20.38787320553874,-67.79915201169852
17166.66666666667,0.02069595707376674,-20.50786001552263,-68.0484313641376
17180,0.02131298535707392,-20.62656584824615,-68.3265934507322
17193.33333333333,0.02051921706303687,-20.74104221153824,-68.60943013212946
17206.66666666667,0.02123783216975373,-20.856845785419,-68.89562516231412
17220,0.01972939561541065,-20.97588117101345,-69.16374026609287
17233.33333333333,0.02021951560992252,-21.07488751295315,-69.42078315810488
17246.66666666667,0.02031782582194724,-21.20254864392342,-69.6830748624362
17260,0.01998227006989891,-21.31052261165529,-69.9663200040375
17273.33333333333,0.0209137323001157,-21.42073836346029,-70.15288368059805
17286.66666666667,0.01978055104592888,-21.51854314709762,-70.39192561392103
17300,0.0198435561756708,-21.62867027879831,-70.62747962763027
17313.33333333333,0.02003924722208393,-21.73593328108426,-70.83267252882008
17326.66666666667,0.02034026278669179,-21.83981661469849,-71.05409122071433
17340,0.0207465632028166,-21.94234331249361,-71.31855002056056
17353.33333333333,0.02068332503031217,-22.04259447264763,-71.48017156316719
17366.66666666667,0.0200029881783133,-22.14626389440956,-71.68956490643258
17380,0.02066453509496766,-22.24811230160561,-71.859025266784
17393.33333333333,0.02128775728572226,-22.33773068210726,-72.06778675759563
17406.66666666667,0.02097046476091737,-22.43837602604338,-72.30660107593208
17420,0.02017898482796103,-22.52774389118769,-72.43553581633677
